Sample in Buffer,Sample in Window,TRIGGER,u_ad_inf/u_adc_sample_interface/u_ctrl_module/value[4:0],u_ad_inf/u_adc_sample_interface/u_ctrl_module/state[3:0],u_ad_inf/u_adc_sample_interface/u_ctrl_module/standard_value[4:0],u_ad_inf/u_adc_sample_interface/u_ctrl_module/max_standard_value[4:0],u_ad_inf/u_adc_sample_interface/u_ctrl_module/max_length_flag_value[4:0],u_ad_inf/u_adc_sample_interface/u_ctrl_module/length_flag_value[4:0],u_ad_inf/u_adc_sample_interface/u_ctrl_module/value_c0[4:0],u_ad_inf/u_adc_sample_interface/u_ctrl_module/flag_value[4:0],u_ad_inf/u_adc_sample_interface/u_ctrl_module/adc_data_sample[11:0],u_ad_inf/u_adc_sample_interface/u_iob_module_int/adc_data0_sample[11:0],u_ad_inf/u_adc_sample_interface/u_iob_module_int/cnt[11:0],u_ad_inf/u_adc_sample_interface/u_iob_module_int/data0[11:1],u_ad_inf/u_adc_sample_interface/u_iob_module_int/cnt_shift[11:0],u_ad_inf/u_adc_sample_interface/u_iob_module_int/state[3:0],u_ila_0_adc_data_sample[0]_2,u_ila_0_adc_data_sample[1]_2,u_ila_0_adc_data_sample[2]_2,u_ila_0_adc_data_sample[3]_2,u_ila_0_adc_data_sample[4]_2,u_ila_0_adc_data_sample[5]_2,u_ila_0_adc_data_sample[6]_2,u_ila_0_adc_data_sample[7]_2,u_ila_0_adc_data_sample[8]_2,u_ila_0_adc_data_sample[9]_2,u_ila_0_adc_data_sample[10]_2,u_ila_0_adc_data_sample[11]_2,u_ad_inf/adc_ready,u_ad_inf/u_adc_sample_interface/u_ctrl_module/adc_ready,u_ad_inf/u_adc_cfg_module/u_initial_adc/cal_done,u_ad_inf/u_adc_sample_interface/u_ctrl_module/cali_done,u_ad_inf/u_adc_sample_interface/u_iob_module_int/done,u_ad_inf/u_adc_sample_interface/u_iob_module_int/rst,u_ad_inf/u_adc_sample_interface/u_ctrl_module/rst_iob
Radix - UNSIGNED,UNSIGNED,UNSIGNED,HEX,HEX,HEX,HEX,HEX,HEX,HEX,HEX,SIGNED,HEX,HEX,HEX,HEX,HEX,HEX,HEX,HEX,HEX,HEX,HEX,HEX,HEX,HEX,HEX,HEX,HEX,HEX,HEX,HEX,HEX,HEX,HEX,HEX
0,0,0,00,b,00,00,00,00,00,00,1789,7ed,000,000,006,3,1,1,0,1,1,1,1,1,0,1,1,0,1,1,1,1,1,0,0
1,1,0,00,b,00,00,00,00,00,00,1787,7ac,000,000,006,3,0,0,0,1,1,1,1,1,0,1,1,0,1,1,1,1,1,0,0
2,2,0,00,b,00,00,00,00,00,00,1784,622,000,000,006,3,0,0,1,0,0,0,0,1,0,1,1,0,1,1,1,1,1,0,0
3,3,0,00,b,00,00,00,00,00,00,1668,4ea,000,000,006,3,0,1,1,1,0,0,1,0,0,1,1,0,1,1,1,1,1,0,0
4,4,0,00,b,00,00,00,00,00,00,1614,565,000,000,006,3,1,1,0,0,1,1,0,0,0,1,1,0,1,1,1,1,1,0,0
5,5,0,00,b,00,00,00,00,00,00,1587,461,000,000,006,3,1,1,0,0,0,0,0,0,0,1,1,0,1,1,1,1,1,0,0
6,6,0,00,b,00,00,00,00,00,00,1539,2f8,000,000,006,3,0,1,0,1,0,0,1,1,1,0,1,0,1,1,1,1,1,0,0
7,7,0,00,b,00,00,00,00,00,00,1482,235,000,000,006,3,1,0,0,0,1,0,0,1,1,0,1,0,1,1,1,1,1,0,0
8,8,0,00,b,00,00,00,00,00,00,1425,03c,000,000,006,3,0,0,0,0,1,0,1,0,1,0,1,0,1,1,1,1,1,0,0
9,9,0,00,b,00,00,00,00,00,00,1360,0f3,000,000,006,3,1,1,1,1,0,0,0,0,1,0,1,0,1,1,1,1,1,0,0
10,10,0,00,b,00,00,00,00,00,00,1295,26a,000,000,006,3,0,1,1,0,0,0,1,1,0,0,1,0,1,1,1,1,1,0,0
11,11,0,00,b,00,00,00,00,00,00,1222,16f,000,000,006,3,1,1,1,0,1,1,1,0,0,0,1,0,1,1,1,1,1,0,0
12,12,0,00,b,00,00,00,00,00,00,1143,124,000,000,006,3,0,0,0,0,1,1,0,0,0,0,1,0,1,1,1,1,1,0,0
13,13,0,00,b,00,00,00,00,00,00,1072,6dc,000,000,006,3,0,1,0,1,1,0,1,1,1,1,0,0,1,1,1,1,1,0,0
14,14,0,00,b,00,00,00,00,00,00,986,651,000,000,006,3,1,1,0,0,0,0,0,1,1,1,0,0,1,1,1,1,1,0,0
15,15,0,00,b,00,00,00,00,00,00,899,5d1,000,000,006,3,1,1,0,1,0,1,0,0,1,1,0,0,1,1,1,1,1,0,0
16,16,0,00,b,00,00,00,00,00,00,811,6ca,000,000,006,3,0,1,1,1,0,0,1,1,0,1,0,0,1,1,1,1,1,0,0
17,17,0,00,b,00,00,00,00,00,00,718,50d,000,000,006,3,1,0,0,0,1,1,1,0,0,1,0,0,1,1,1,1,1,0,0
18,18,0,00,b,00,00,00,00,00,00,625,482,000,000,006,3,0,0,1,1,0,0,0,0,0,1,0,0,1,1,1,1,1,0,0
19,19,0,00,b,00,00,00,00,00,00,524,353,000,000,006,3,1,1,1,0,0,1,0,1,1,0,0,0,1,1,1,1,1,0,0
20,20,0,00,b,00,00,00,00,00,00,423,098,000,000,006,3,0,0,0,1,0,0,1,0,1,0,0,0,1,1,1,1,1,0,0
21,21,0,00,b,00,00,00,00,00,00,328,34a,000,000,006,3,0,1,1,0,0,1,1,1,0,0,0,0,1,1,1,1,1,0,0
22,22,0,00,b,00,00,00,00,00,00,230,241,000,000,006,3,1,1,0,0,0,0,0,1,0,0,0,0,1,1,1,1,1,0,0
23,23,0,00,b,00,00,00,00,00,00,131,047,000,000,006,3,1,1,1,0,1,0,0,0,0,0,0,0,1,1,1,1,1,0,0
24,24,0,00,b,00,00,00,00,00,00,23,f74,000,000,006,3,0,1,0,0,1,1,0,1,1,1,1,1,1,1,1,1,1,0,0
25,25,0,00,b,00,00,00,00,00,00,-78,cbb,000,000,006,3,1,0,1,1,0,0,1,0,1,1,1,1,1,1,1,1,1,0,0
26,26,0,00,b,00,00,00,00,00,00,-179,fa8,000,000,006,3,0,0,0,1,0,1,1,1,0,1,1,1,1,1,1,1,1,0,0
27,27,0,00,b,00,00,00,00,00,00,-280,ea0,000,000,006,3,0,0,0,1,0,0,0,1,0,1,1,1,1,1,1,1,1,0,0
28,28,0,00,b,00,00,00,00,00,00,-376,d60,000,000,006,3,0,1,0,0,0,1,0,0,0,1,1,1,1,1,1,1,1,0,0
29,29,0,00,b,00,00,00,00,00,00,-478,a3a,000,000,006,3,0,0,1,0,0,0,1,1,1,0,1,1,1,1,1,1,1,0,0
30,30,0,00,b,00,00,00,00,00,00,-572,938,000,000,006,3,0,0,0,0,0,1,1,0,1,0,1,1,1,1,1,1,1,0,0
31,31,0,00,b,00,00,00,00,00,00,-672,bae,000,000,006,3,0,0,1,1,1,1,1,1,0,0,1,1,1,1,1,1,1,0,0
32,32,0,00,b,00,00,00,00,00,00,-772,ba2,000,000,006,3,0,0,1,1,0,1,0,1,0,0,1,1,1,1,1,1,1,0,0
33,33,0,00,b,00,00,00,00,00,00,-852,8ab,000,000,006,3,1,0,1,1,0,0,1,0,0,0,1,1,1,1,1,1,1,0,0
34,34,0,00,b,00,00,00,00,00,00,-947,f1e,000,000,006,3,0,0,1,0,1,1,1,1,1,1,0,1,1,1,1,1,1,0,0
35,35,0,00,b,00,00,00,00,00,00,-1036,f13,000,000,006,3,1,0,1,0,0,1,0,1,1,1,0,1,1,1,1,1,1,0,0
36,36,0,00,b,00,00,00,00,00,00,-1115,c1f,000,000,006,3,1,0,1,0,1,0,1,0,1,1,0,1,1,1,1,1,1,0,0
37,37,0,00,b,00,00,00,00,00,00,-1195,cd1,000,000,006,3,1,1,0,1,0,0,0,0,1,1,0,1,1,1,1,1,1,0,0
38,38,0,00,b,00,00,00,00,00,00,-1269,e09,000,000,006,3,1,0,0,0,0,0,1,1,0,1,0,1,1,1,1,1,1,0,0
39,39,0,00,b,00,00,00,00,00,00,-1343,e02,000,000,006,3,0,0,1,0,0,0,0,1,0,1,0,1,1,1,1,1,1,0,0
40,40,0,00,b,00,00,00,00,00,00,-1404,c4b,000,000,006,3,1,1,1,0,0,0,1,0,0,1,0,1,1,1,1,1,1,0,0
41,41,0,00,b,00,00,00,00,00,00,-1465,c45,000,000,006,3,1,1,0,0,1,0,0,0,0,1,0,1,1,1,1,1,1,0,0
42,42,0,00,b,00,00,00,00,00,00,-1517,a9d,000,000,006,3,1,0,0,1,1,0,1,1,1,0,0,1,1,1,1,1,1,0,0
43,43,0,00,b,00,00,00,00,00,00,-1575,b13,000,000,006,3,1,0,1,0,0,1,0,1,1,0,0,1,1,1,1,1,1,0,0
44,44,0,00,b,00,00,00,00,00,00,-1627,a51,000,000,006,3,1,1,0,0,0,0,0,1,1,0,0,1,1,1,1,1,1,0,0
45,45,0,00,b,00,00,00,00,00,00,-1661,8dc,000,000,006,3,0,1,0,1,1,0,1,0,1,0,0,1,1,1,1,1,1,0,0
46,46,0,00,b,00,00,00,00,00,00,-1702,957,000,000,006,3,1,1,1,0,1,1,0,0,1,0,0,1,1,1,1,1,1,0,0
47,47,0,00,b,00,00,00,00,00,00,-1737,950,000,000,006,3,0,1,0,0,0,1,0,0,1,0,0,1,1,1,1,1,1,0,0
48,48,0,00,b,00,00,00,00,00,00,-1758,854,000,000,006,3,0,1,0,0,1,0,0,0,1,0,0,1,1,1,1,1,1,0,0
49,49,0,00,b,00,00,00,00,00,00,-1774,851,000,000,006,3,1,1,0,0,0,0,0,0,1,0,0,1,1,1,1,1,1,0,0
50,50,0,00,b,00,00,00,00,00,00,-1789,b0f,000,000,006,3,1,0,1,0,1,1,1,1,0,0,0,1,1,1,1,1,1,0,0
51,51,0,00,b,00,00,00,00,00,00,-1803,b0f,000,000,006,3,1,0,1,0,1,1,1,1,0,0,0,1,1,1,1,1,1,0,0
52,52,0,00,b,00,00,00,00,00,00,-1803,b0e,000,000,006,3,0,0,1,0,1,1,1,1,0,0,0,1,1,1,1,1,1,0,0
53,53,0,00,b,00,00,00,00,00,00,-1804,b8e,000,000,006,3,0,0,1,1,1,1,1,1,0,0,0,1,1,1,1,1,1,0,0
54,54,0,00,b,00,00,00,00,00,00,-1796,850,000,000,006,3,0,1,0,0,0,0,0,0,1,0,0,1,1,1,1,1,1,0,0
55,55,0,00,b,00,00,00,00,00,00,-1790,855,000,000,006,3,1,1,0,0,1,0,0,0,1,0,0,1,1,1,1,1,1,0,0
56,56,0,00,b,00,00,00,00,00,00,-1773,914,000,000,006,3,0,0,0,0,1,1,0,0,1,0,0,1,1,1,1,1,1,0,0
57,57,0,00,b,00,00,00,00,00,00,-1744,81a,000,000,006,3,0,0,1,0,0,0,1,0,1,0,0,1,1,1,1,1,1,0,0
58,58,0,00,b,00,00,00,00,00,00,-1724,998,000,000,006,3,0,0,0,1,0,1,1,0,1,0,0,1,1,1,1,1,1,0,0
59,59,0,00,b,00,00,00,00,00,00,-1688,a17,000,000,006,3,1,0,1,0,1,0,0,1,1,0,0,1,1,1,1,1,1,0,0
60,60,0,00,b,00,00,00,00,00,00,-1643,b97,000,000,006,3,1,0,1,1,1,1,0,1,1,0,0,1,1,1,1,1,1,0,0
61,61,0,00,b,00,00,00,00,00,00,-1603,bdb,000,000,006,3,1,1,1,1,0,1,1,1,1,0,0,1,1,1,1,1,1,0,0
62,62,0,00,b,00,00,00,00,00,00,-1553,dc2,000,000,006,3,0,1,1,1,0,1,0,0,0,1,0,1,1,1,1,1,1,0,0
63,63,0,00,b,00,00,00,00,00,00,-1490,d0b,000,000,006,3,1,0,1,0,0,1,1,0,0,1,0,1,1,1,1,1,1,0,0
64,64,0,00,b,00,00,00,00,00,00,-1435,f40,000,000,006,3,0,1,0,0,0,1,0,1,0,1,0,1,1,1,1,1,1,0,0
65,65,0,00,b,00,00,00,00,00,00,-1374,f89,000,000,006,3,1,0,0,1,0,1,1,1,0,1,0,1,1,1,1,1,1,0,0
66,66,0,00,b,00,00,00,00,00,00,-1303,d17,000,000,006,3,1,0,1,0,1,1,0,0,1,1,0,1,1,1,1,1,1,0,0
67,67,0,00,b,00,00,00,00,00,00,-1227,e50,000,000,006,3,0,1,0,0,0,0,0,1,1,1,0,1,1,1,1,1,1,0,0
68,68,0,00,b,00,00,00,00,00,00,-1150,e98,000,000,006,3,0,0,0,1,0,0,1,1,1,1,0,1,1,1,1,1,1,0,0
69,69,0,00,b,00,00,00,00,00,00,-1080,960,000,000,006,3,0,1,0,0,0,1,0,0,0,0,1,1,1,1,1,1,1,0,0
70,70,0,00,b,00,00,00,00,00,00,-990,a21,000,000,006,3,1,0,0,0,0,0,0,1,0,0,1,1,1,1,1,1,1,0,0
71,71,0,00,b,00,00,00,00,00,00,-895,a2e,000,000,006,3,0,0,1,0,1,0,1,1,0,0,1,1,1,1,1,1,1,0,0
72,72,0,00,b,00,00,00,00,00,00,-812,974,000,000,006,3,0,1,0,0,1,1,0,0,1,0,1,1,1,1,1,1,1,0,0
73,73,0,00,b,00,00,00,00,00,00,-718,a74,000,000,006,3,0,1,0,0,1,0,0,1,1,0,1,1,1,1,1,1,1,0,0
74,74,0,00,b,00,00,00,00,00,00,-622,bbb,000,000,006,3,1,0,1,1,0,1,1,1,1,0,1,1,1,1,1,1,1,0,0
75,75,0,00,b,00,00,00,00,00,00,-531,cea,000,000,006,3,0,1,1,1,0,0,1,0,0,1,1,1,1,1,1,1,1,0,0
76,76,0,00,b,00,00,00,00,00,00,-434,f67,000,000,006,3,1,1,1,0,1,1,0,1,0,1,1,1,1,1,1,1,1,0,0
77,77,0,00,b,00,00,00,00,00,00,-329,c37,000,000,006,3,1,0,1,0,1,0,0,0,1,1,1,1,1,1,1,1,1,0,0
78,78,0,00,b,00,00,00,00,00,00,-235,dff,000,000,006,3,1,1,1,1,1,1,1,0,1,1,1,1,1,1,1,1,1,0,0
79,79,0,00,b,00,00,00,00,00,00,-129,f3a,000,000,006,3,0,0,1,0,0,1,1,1,1,1,1,1,1,1,1,1,1,0,0
80,80,0,00,b,00,00,00,00,00,00,-28,08a,000,000,006,3,0,0,1,1,0,0,1,0,0,0,0,0,1,1,1,1,1,0,0
81,81,0,00,b,00,00,00,00,00,00,76,380,000,000,006,3,0,0,0,1,0,1,0,1,0,0,0,0,1,1,1,1,1,0,0
82,82,0,00,b,00,00,00,00,00,00,168,0d3,000,000,006,3,1,1,1,1,0,0,0,0,1,0,0,0,1,1,1,1,1,0,0
83,83,0,00,b,00,00,00,00,00,00,271,15c,000,000,006,3,0,1,0,0,1,1,1,0,1,0,0,0,1,1,1,1,1,0,0
84,84,0,00,b,00,00,00,00,00,00,370,29f,000,000,006,3,1,0,1,1,1,0,1,1,1,0,0,0,1,1,1,1,1,0,0
85,85,0,00,b,00,00,00,00,00,00,477,5c4,000,000,006,3,0,1,0,1,1,1,0,0,0,1,0,0,1,1,1,1,1,0,0
86,86,0,00,b,00,00,00,00,00,00,570,647,000,000,006,3,1,1,1,0,1,0,0,1,0,1,0,0,1,1,1,1,1,0,0
87,87,0,00,b,00,00,00,00,00,00,663,411,000,000,006,3,1,0,0,0,0,0,0,0,1,1,0,0,1,1,1,1,1,0,0
88,88,0,00,b,00,00,00,00,00,00,769,451,000,000,006,3,1,1,0,0,0,0,0,0,1,1,0,0,1,1,1,1,1,0,0
89,89,0,00,b,00,00,00,00,00,00,771,060,000,000,006,3,0,1,0,0,0,0,0,0,0,0,1,0,1,1,1,1,1,0,0
90,90,0,00,b,00,00,00,00,00,00,1026,060,000,000,006,3,0,1,0,0,0,0,0,0,0,0,1,0,1,1,1,1,1,0,0
91,91,0,00,b,00,00,00,00,00,00,1026,021,000,000,006,3,1,0,0,0,0,0,0,0,0,0,1,0,1,1,1,1,1,0,0
92,92,0,00,b,00,00,00,00,00,00,1025,031,000,000,006,3,1,0,0,0,0,0,0,0,1,0,1,0,1,1,1,1,1,0,0
93,93,0,00,b,00,00,00,00,00,00,1281,030,000,000,006,3,0,0,0,0,0,0,0,0,1,0,1,0,1,1,1,1,1,0,0
94,94,0,00,b,00,00,00,00,00,00,1280,031,000,000,006,3,1,0,0,0,0,0,0,0,1,0,1,0,1,1,1,1,1,0,0
95,95,0,00,b,00,00,00,00,00,00,1281,421,000,000,006,3,1,0,0,0,0,0,0,0,0,1,1,0,1,1,1,1,1,0,0
96,96,0,00,b,00,00,00,00,00,00,1537,421,000,000,006,3,1,0,0,0,0,0,0,0,0,1,1,0,1,1,1,1,1,0,0
97,97,0,00,b,00,00,00,00,00,00,1537,420,000,000,006,3,0,0,0,0,0,0,0,0,0,1,1,0,1,1,1,1,1,0,0
98,98,0,00,b,00,00,00,00,00,00,1536,421,000,000,006,3,1,0,0,0,0,0,0,0,0,1,1,0,1,1,1,1,1,0,0
99,99,0,00,b,00,00,00,00,00,00,1537,421,000,000,006,3,1,0,0,0,0,0,0,0,0,1,1,0,1,1,1,1,1,0,0
100,100,0,00,b,00,00,00,00,00,00,1537,421,000,000,006,3,1,0,0,0,0,0,0,0,0,1,1,0,1,1,1,1,1,0,0
101,101,0,00,b,00,00,00,00,00,00,1537,7ef,000,000,006,3,1,1,1,1,1,1,1,1,0,1,1,0,1,1,1,1,1,0,0
102,102,0,00,b,00,00,00,00,00,00,1791,7ee,000,000,006,3,0,1,1,1,1,1,1,1,0,1,1,0,1,1,1,1,1,0,0
103,103,0,00,b,00,00,00,00,00,00,1790,7ee,000,000,006,3,0,1,1,1,1,1,1,1,0,1,1,0,1,1,1,1,1,0,0
104,104,0,00,b,00,00,00,00,00,00,1790,7ef,000,000,006,3,1,1,1,1,1,1,1,1,0,1,1,0,1,1,1,1,1,0,0
105,105,0,00,b,00,00,00,00,00,00,1791,7ee,000,000,006,3,0,1,1,1,1,1,1,1,0,1,1,0,1,1,1,1,1,0,0
106,106,0,00,b,00,00,00,00,00,00,1790,7ee,000,000,006,3,0,1,1,1,1,1,1,1,0,1,1,0,1,1,1,1,1,0,0
107,107,0,00,b,00,00,00,00,00,00,1790,7ef,000,000,006,3,1,1,1,1,1,1,1,1,0,1,1,0,1,1,1,1,1,0,0
108,108,0,00,b,00,00,00,00,00,00,1791,7ee,000,000,006,3,0,1,1,1,1,1,1,1,0,1,1,0,1,1,1,1,1,0,0
109,109,0,00,b,00,00,00,00,00,00,1790,7ee,000,000,006,3,0,1,1,1,1,1,1,1,0,1,1,0,1,1,1,1,1,0,0
110,110,0,00,b,00,00,00,00,00,00,1790,7ef,000,000,006,3,1,1,1,1,1,1,1,1,0,1,1,0,1,1,1,1,1,0,0
111,111,0,00,b,00,00,00,00,00,00,1791,7ee,000,000,006,3,0,1,1,1,1,1,1,1,0,1,1,0,1,1,1,1,1,0,0
112,112,0,00,b,00,00,00,00,00,00,1790,7ec,000,000,006,3,0,1,0,1,1,1,1,1,0,1,1,0,1,1,1,1,1,0,0
113,113,0,00,b,00,00,00,00,00,00,1786,663,000,000,006,3,1,1,1,0,0,0,0,1,0,1,1,0,1,1,1,1,1,0,0
114,114,0,00,b,00,00,00,00,00,00,1671,568,000,000,006,3,0,1,0,0,0,1,1,0,0,1,1,0,1,1,1,1,1,0,0
115,115,0,00,b,00,00,00,00,00,00,1634,5a4,000,000,006,3,0,0,0,1,1,1,0,0,0,1,1,0,1,1,1,1,1,0,0
116,116,0,00,b,00,00,00,00,00,00,1592,425,000,000,006,3,1,0,0,0,1,0,0,0,0,1,1,0,1,1,1,1,1,0,0
117,117,0,00,b,00,00,00,00,00,00,1553,23d,000,000,006,3,1,0,0,0,1,0,1,1,1,0,1,0,1,1,1,1,1,0,0
118,118,0,00,b,00,00,00,00,00,00,1489,2b7,000,000,006,3,1,0,1,1,1,0,0,1,1,0,1,0,1,1,1,1,1,0,0
119,119,0,00,b,00,00,00,00,00,00,1437,0bc,000,000,006,3,0,0,0,1,1,0,1,0,1,0,1,0,1,1,1,1,1,0,0
120,120,0,00,b,00,00,00,00,00,00,1368,0f6,000,000,006,3,0,1,1,1,1,0,0,0,1,0,1,0,1,1,1,1,1,0,0
121,121,0,00,b,00,00,00,00,00,00,1310,2eb,000,000,006,3,1,1,1,1,0,0,1,1,0,0,1,0,1,1,1,1,1,0,0
122,122,0,00,b,00,00,00,00,00,00,1231,261,000,000,006,3,1,1,0,0,0,0,0,1,0,0,1,0,1,1,1,1,1,0,0
123,123,0,00,b,00,00,00,00,00,00,1155,124,000,000,006,3,0,0,0,0,1,1,0,0,0,0,1,0,1,1,1,1,1,0,0
124,124,0,00,b,00,00,00,00,00,00,1072,719,000,000,006,3,1,0,0,0,0,1,1,1,1,1,0,0,1,1,1,1,1,0,0
125,125,0,00,b,00,00,00,00,00,00,993,690,000,000,006,3,0,0,0,1,0,0,0,1,1,1,0,0,1,1,1,1,1,0,0
126,126,0,00,b,00,00,00,00,00,00,904,554,000,000,006,3,0,1,0,0,1,1,0,0,1,1,0,0,1,1,1,1,1,0,0
127,127,0,00,b,00,00,00,00,00,00,818,68c,000,000,006,3,0,0,0,1,1,0,1,1,0,1,0,0,1,1,1,1,1,0,0
128,128,0,00,b,00,00,00,00,00,00,728,50f,000,000,006,3,1,0,1,0,1,1,1,0,0,1,0,0,1,1,1,1,1,0,0
129,129,0,00,b,00,00,00,00,00,00,629,484,000,000,006,3,0,0,0,1,1,0,0,0,0,1,0,0,1,1,1,1,1,0,0
130,130,0,00,b,00,00,00,00,00,00,536,315,000,000,006,3,1,0,0,0,1,1,0,1,1,0,0,0,1,1,1,1,1,0,0
131,131,0,00,b,00,00,00,00,00,00,433,01d,000,000,006,3,1,0,0,0,1,0,1,0,1,0,0,0,1,1,1,1,1,0,0
132,132,0,00,b,00,00,00,00,00,00,337,3ca,000,000,006,3,0,1,1,1,0,1,1,1,0,0,0,0,1,1,1,1,1,0,0
133,133,0,00,b,00,00,00,00,00,00,238,243,000,000,006,3,1,1,1,0,0,0,0,1,0,0,0,0,1,1,1,1,1,0,0
134,134,0,00,b,00,00,00,00,00,00,135,0c7,000,000,006,3,1,1,1,1,1,0,0,0,0,0,0,0,1,1,1,1,1,0,0
135,135,0,00,b,00,00,00,00,00,00,31,fb6,000,000,006,3,0,0,1,1,1,1,0,1,1,1,1,1,1,1,1,1,1,0,0
136,136,0,00,b,00,00,00,00,00,00,-68,cbe,000,000,006,3,0,0,1,1,1,0,1,0,1,1,1,1,1,1,1,1,1,0,0
137,137,0,00,b,00,00,00,00,00,00,-164,fad,000,000,006,3,1,0,0,1,1,1,1,1,0,1,1,1,1,1,1,1,1,0,0
138,138,0,00,b,00,00,00,00,00,00,-263,e65,000,000,006,3,1,1,0,0,1,0,0,1,0,1,1,1,1,1,1,1,1,0,0
139,139,0,00,b,00,00,00,00,00,00,-365,da3,000,000,006,3,1,0,1,1,0,1,0,0,0,1,1,1,1,1,1,1,1,0,0
140,140,0,00,b,00,00,00,00,00,00,-467,af8,000,000,006,3,0,1,0,1,0,0,1,1,1,0,1,1,1,1,1,1,1,0,0
141,141,0,00,b,00,00,00,00,00,00,-566,9fa,000,000,006,3,0,1,1,1,0,1,1,0,1,0,1,1,1,1,1,1,1,0,0
142,142,0,00,b,00,00,00,00,00,00,-658,8b2,000,000,006,3,0,0,1,1,0,0,0,0,1,0,1,1,1,1,1,1,1,0,0
143,143,0,00,b,00,00,00,00,00,00,-756,b27,000,000,006,3,1,0,1,0,1,1,0,1,0,0,1,1,1,1,1,1,1,0,0
144,144,0,00,b,00,00,00,00,00,00,-843,86e,000,000,006,3,0,1,1,0,1,0,1,0,0,0,1,1,1,1,1,1,1,0,0
145,145,0,00,b,00,00,00,00,00,00,-938,fde,000,000,006,3,0,1,1,1,1,1,1,1,1,1,0,1,1,1,1,1,1,0,0
146,146,0,00,b,00,00,00,00,00,00,-1026,f14,000,000,006,3,0,0,0,0,1,1,0,1,1,1,0,1,1,1,1,1,1,0,0
147,147,0,00,b,00,00,00,00,00,00,-1104,d18,000,000,006,3,0,0,0,0,0,1,1,0,1,1,0,1,1,1,1,1,1,0,0
148,148,0,00,b,00,00,00,00,00,00,-1184,c94,000,000,006,3,0,0,0,1,1,0,0,0,1,1,0,1,1,1,1,1,1,0,0
149,149,0,00,b,00,00,00,00,00,00,-1256,ec9,000,000,006,3,1,1,0,1,0,0,1,1,0,1,0,1,1,1,1,1,1,0,0
150,150,0,00,b,00,00,00,00,00,00,-1333,e83,000,000,006,3,1,0,1,1,0,0,0,1,0,1,0,1,1,1,1,1,1,0,0
151,151,0,00,b,00,00,00,00,00,00,-1395,c0c,000,000,006,3,0,0,0,0,1,0,1,0,0,1,0,1,1,1,1,1,1,0,0
152,152,0,00,b,00,00,00,00,00,00,-1456,c44,000,000,006,3,0,1,0,0,1,0,0,0,0,1,0,1,1,1,1,1,1,0,0
153,153,0,00,b,00,00,00,00,00,00,-1518,adc,000,000,006,3,0,1,0,1,1,0,1,1,1,0,0,1,1,1,1,1,1,0,0
154,154,0,00,b,00,00,00,00,00,00,-1574,b93,000,000,006,3,1,0,1,1,0,1,0,1,1,0,0,1,1,1,1,1,1,0,0
155,155,0,00,b,00,00,00,00,00,00,-1619,a13,000,000,006,3,1,0,1,0,0,0,0,1,1,0,0,1,1,1,1,1,1,0,0
156,156,0,00,b,00,00,00,00,00,00,-1659,959,000,000,006,3,1,1,0,0,0,1,1,0,1,0,0,1,1,1,1,1,1,0,0
157,157,0,00,b,00,00,00,00,00,00,-1693,819,000,000,006,3,1,0,0,0,0,0,1,0,1,0,0,1,1,1,1,1,1,0,0
158,158,0,00,b,00,00,00,00,00,00,-1727,911,000,000,006,3,1,0,0,0,0,1,0,0,1,0,0,1,1,1,1,1,1,0,0
159,159,0,00,b,00,00,00,00,00,00,-1759,854,000,000,006,3,0,1,0,0,1,0,0,0,1,0,0,1,1,1,1,1,1,0,0
160,160,0,00,b,00,00,00,00,00,00,-1774,851,000,000,006,3,1,1,0,0,0,0,0,0,1,0,0,1,1,1,1,1,1,0,0
161,161,0,00,b,00,00,00,00,00,00,-1789,b4e,000,000,006,3,0,1,1,0,1,1,1,1,0,0,0,1,1,1,1,1,1,0,0
162,162,0,00,b,00,00,00,00,00,00,-1802,b0f,000,000,006,3,1,0,1,0,1,1,1,1,0,0,0,1,1,1,1,1,1,0,0
163,163,0,00,b,00,00,00,00,00,00,-1803,b0e,000,000,006,3,0,0,1,0,1,1,1,1,0,0,0,1,1,1,1,1,1,0,0
164,164,0,00,b,00,00,00,00,00,00,-1804,b0f,000,000,006,3,1,0,1,0,1,1,1,1,0,0,0,1,1,1,1,1,1,0,0
165,165,0,00,b,00,00,00,00,00,00,-1803,851,000,000,006,3,1,1,0,0,0,0,0,0,1,0,0,1,1,1,1,1,1,0,0
166,166,0,00,b,00,00,00,00,00,00,-1789,854,000,000,006,3,0,1,0,0,1,0,0,0,1,0,0,1,1,1,1,1,1,0,0
167,167,0,00,b,00,00,00,00,00,00,-1774,953,000,000,006,3,1,1,1,0,0,1,0,0,1,0,0,1,1,1,1,1,1,0,0
168,168,0,00,b,00,00,00,00,00,00,-1753,819,000,000,006,3,1,0,0,0,0,0,1,0,1,0,0,1,1,1,1,1,1,0,0
169,169,0,00,b,00,00,00,00,00,00,-1727,91a,000,000,006,3,0,0,1,0,0,1,1,0,1,0,0,1,1,1,1,1,1,0,0
170,170,0,00,b,00,00,00,00,00,00,-1692,a91,000,000,006,3,1,0,0,1,0,0,0,1,1,0,0,1,1,1,1,1,1,0,0
171,171,0,00,b,00,00,00,00,00,00,-1655,b56,000,000,006,3,0,1,1,0,1,1,0,1,1,0,0,1,1,1,1,1,1,0,0
172,172,0,00,b,00,00,00,00,00,00,-1610,bd8,000,000,006,3,0,1,0,1,0,1,1,1,1,0,0,1,1,1,1,1,1,0,0
173,173,0,00,b,00,00,00,00,00,00,-1558,d42,000,000,006,3,0,1,1,0,0,1,0,0,0,1,0,1,1,1,1,1,1,0,0
174,174,0,00,b,00,00,00,00,00,00,-1498,ccf,000,000,006,3,1,1,1,1,1,0,1,0,0,1,0,1,1,1,1,1,1,0,0
175,175,0,00,b,00,00,00,00,00,00,-1441,e46,000,000,006,3,0,1,1,0,1,0,0,1,0,1,0,1,1,1,1,1,1,0,0
176,176,0,00,b,00,00,00,00,00,00,-1386,f0a,000,000,006,3,0,0,1,0,0,1,1,1,0,1,0,1,1,1,1,1,1,0,0
177,177,0,00,b,00,00,00,00,00,00,-1308,d91,000,000,006,3,1,0,0,1,0,1,0,0,1,1,0,1,1,1,1,1,1,0,0
178,178,0,00,b,00,00,00,00,00,00,-1239,d9c,000,000,006,3,0,0,0,1,1,1,1,0,1,1,0,1,1,1,1,1,1,0,0
179,179,0,00,b,00,00,00,00,00,00,-1160,e58,000,000,006,3,0,1,0,0,0,0,1,1,1,1,0,1,1,1,1,1,1,0,0
180,180,0,00,b,00,00,00,00,00,00,-1086,8a5,000,000,006,3,1,0,0,1,1,0,0,0,0,0,1,1,1,1,1,1,1,0,0
181,181,0,00,b,00,00,00,00,00,00,-999,9eb,000,000,006,3,1,1,1,1,0,1,1,0,0,0,1,1,1,1,1,1,1,0,0
182,182,0,00,b,00,00,00,00,00,00,-913,ae9,000,000,006,3,1,1,0,1,0,0,1,1,0,0,1,1,1,1,1,1,1,0,0
183,183,0,00,b,00,00,00,00,00,00,-821,9b1,000,000,006,3,1,0,0,1,0,1,0,0,1,0,1,1,1,1,1,1,1,0,0
184,184,0,00,b,00,00,00,00,00,00,-727,9ff,000,000,006,3,1,1,1,1,1,1,1,0,1,0,1,1,1,1,1,1,1,0,0
185,185,0,00,b,00,00,00,00,00,00,-641,b3a,000,000,006,3,0,0,1,0,0,1,1,1,1,0,1,1,1,1,1,1,1,0,0
186,186,0,00,b,00,00,00,00,00,00,-540,c2b,000,000,006,3,1,0,1,0,0,0,1,0,0,1,1,1,1,1,1,1,1,0,0
187,187,0,00,b,00,00,00,00,00,00,-443,fe1,000,000,006,3,1,1,0,1,0,1,0,1,0,1,1,1,1,1,1,1,1,0,0
188,188,0,00,b,00,00,00,00,00,00,-341,cb2,000,000,006,3,0,0,1,1,0,0,0,0,1,1,1,1,1,1,1,1,1,0,0
189,189,0,00,b,00,00,00,00,00,00,-244,d7c,000,000,006,3,0,1,0,0,1,1,1,0,1,1,1,1,1,1,1,1,1,0,0
190,190,0,00,b,00,00,00,00,00,00,-142,e7f,000,000,006,3,1,1,1,0,1,0,1,1,1,1,1,1,1,1,1,1,1,0,0
191,191,0,00,b,00,00,00,00,00,00,-41,187,000,000,006,3,1,0,1,1,1,1,0,0,0,0,0,0,1,1,1,1,1,0,0
192,192,0,00,b,00,00,00,00,00,00,61,287,000,000,006,3,1,0,1,1,1,0,0,1,0,0,0,0,1,1,1,1,1,0,0
193,193,0,00,b,00,00,00,00,00,00,157,052,000,000,006,3,0,1,1,0,0,0,0,0,1,0,0,0,1,1,1,1,1,0,0
194,194,0,00,b,00,00,00,00,00,00,262,1d8,000,000,006,3,0,1,0,1,0,1,1,0,1,0,0,0,1,1,1,1,1,0,0
