Sample in Buffer,Sample in Window,TRIGGER,u_ad_inf/u_adc_sample_interface/u_ctrl_module/value[4:0],u_ad_inf/u_adc_sample_interface/u_ctrl_module/state[3:0],u_ad_inf/u_adc_sample_interface/u_ctrl_module/standard_value[4:0],u_ad_inf/u_adc_sample_interface/u_ctrl_module/max_standard_value[4:0],u_ad_inf/u_adc_sample_interface/u_ctrl_module/max_length_flag_value[4:0],u_ad_inf/u_adc_sample_interface/u_ctrl_module/length_flag_value[4:0],u_ad_inf/u_adc_sample_interface/u_ctrl_module/value_c0[4:0],u_ad_inf/u_adc_sample_interface/u_ctrl_module/flag_value[4:0],u_ad_inf/u_adc_sample_interface/u_ctrl_module/adc_data_sample[11:0],u_ad_inf/u_adc_sample_interface/u_iob_module_int/adc_data0_sample[11:0],u_ad_inf/u_adc_sample_interface/u_iob_module_int/cnt[11:0],u_ad_inf/u_adc_sample_interface/u_iob_module_int/data0[11:1],u_ad_inf/u_adc_sample_interface/u_iob_module_int/cnt_shift[11:0],u_ad_inf/u_adc_sample_interface/u_iob_module_int/state[3:0],u_ila_0_adc_data_sample[0]_2,u_ila_0_adc_data_sample[1]_2,u_ila_0_adc_data_sample[2]_2,u_ila_0_adc_data_sample[3]_2,u_ila_0_adc_data_sample[4]_2,u_ila_0_adc_data_sample[5]_2,u_ila_0_adc_data_sample[6]_2,u_ila_0_adc_data_sample[7]_2,u_ila_0_adc_data_sample[8]_2,u_ila_0_adc_data_sample[9]_2,u_ila_0_adc_data_sample[10]_2,u_ila_0_adc_data_sample[11]_2,u_ad_inf/adc_ready,u_ad_inf/u_adc_sample_interface/u_ctrl_module/adc_ready,u_ad_inf/u_adc_cfg_module/u_initial_adc/cal_done,u_ad_inf/u_adc_sample_interface/u_ctrl_module/cali_done,u_ad_inf/u_adc_sample_interface/u_iob_module_int/done,u_ad_inf/u_adc_sample_interface/u_iob_module_int/rst,u_ad_inf/u_adc_sample_interface/u_ctrl_module/rst_iob
Radix - UNSIGNED,UNSIGNED,UNSIGNED,HEX,HEX,HEX,HEX,HEX,HEX,HEX,HEX,SIGNED,HEX,HEX,HEX,HEX,HEX,HEX,HEX,HEX,HEX,HEX,HEX,HEX,HEX,HEX,HEX,HEX,HEX,HEX,HEX,HEX,HEX,HEX,HEX,HEX
0,0,0,00,b,00,00,00,00,00,00,1278,3bf,000,000,006,3,1,0,1,1,1,1,1,1,1,0,1,0,1,1,1,1,1,0,0
1,1,0,00,b,00,00,00,00,00,00,1533,3bf,000,000,006,3,1,0,1,1,1,1,1,1,1,0,1,0,1,1,1,1,1,0,0
2,2,0,00,b,00,00,00,00,00,00,1533,7ed,000,000,006,3,1,1,0,1,1,1,1,1,0,1,1,0,1,1,1,1,1,0,0
3,3,0,00,b,00,00,00,00,00,00,1787,7ae,000,000,006,3,0,0,1,1,1,1,1,1,0,1,1,0,1,1,1,1,1,0,0
4,4,0,00,b,00,00,00,00,00,00,1788,7ec,000,000,006,3,0,1,0,1,1,1,1,1,0,1,1,0,1,1,1,1,1,0,0
5,5,0,00,b,00,00,00,00,00,00,1786,7ae,000,000,006,3,0,0,1,1,1,1,1,1,0,1,1,0,1,1,1,1,1,0,0
6,6,0,00,b,00,00,00,00,00,00,1788,7ae,000,000,006,3,0,0,1,1,1,1,1,1,0,1,1,0,1,1,1,1,1,0,0
7,7,0,00,b,00,00,00,00,00,00,1788,7af,000,000,006,3,1,0,1,1,1,1,1,1,0,1,1,0,1,1,1,1,1,0,0
8,8,0,00,b,00,00,00,00,00,00,1789,3be,000,000,006,3,0,0,1,1,1,1,1,1,1,0,1,0,1,1,1,1,1,0,0
9,9,0,00,b,00,00,00,00,00,00,1532,3bd,000,000,006,3,1,0,0,1,1,1,1,1,1,0,1,0,1,1,1,1,1,0,0
10,10,0,00,b,00,00,00,00,00,00,1529,1b4,000,000,006,3,0,0,0,1,1,1,0,0,1,0,1,0,1,1,1,1,1,0,0
11,11,0,00,b,00,00,00,00,00,00,1336,225,000,000,006,3,1,0,0,0,1,0,0,1,0,0,1,0,1,1,1,1,1,0,0
12,12,0,00,b,00,00,00,00,00,00,1169,618,000,000,006,3,0,0,0,0,0,0,1,1,1,1,0,0,1,1,1,1,1,0,0
13,13,0,00,b,00,00,00,00,00,00,960,74c,000,000,006,3,0,1,0,0,1,1,1,1,0,1,0,0,1,1,1,1,1,0,0
14,14,0,00,b,00,00,00,00,00,00,754,444,000,000,006,3,0,1,0,0,1,0,0,0,0,1,0,0,1,1,1,1,1,0,0
15,15,0,00,b,00,00,00,00,00,00,530,1d2,000,000,006,3,0,1,1,1,0,1,0,0,1,0,0,0,1,1,1,1,1,0,0
16,16,0,00,b,00,00,00,00,00,00,302,04a,000,000,006,3,0,1,1,0,0,0,1,0,0,0,0,0,1,1,1,1,1,0,0
17,17,0,00,b,00,00,00,00,00,00,70,cfc,000,000,006,3,0,1,0,1,1,0,1,0,1,1,1,1,1,1,1,1,1,0,0
18,18,0,00,b,00,00,00,00,00,00,-166,dab,000,000,006,3,1,0,1,1,0,1,1,0,0,1,1,1,1,1,1,1,1,0,0
19,19,0,00,b,00,00,00,00,00,00,-403,ab0,000,000,006,3,0,0,0,1,0,0,0,1,1,0,1,1,1,1,1,1,1,0,0
20,20,0,00,b,00,00,00,00,00,00,-632,b25,000,000,006,3,1,0,0,0,1,1,0,1,0,0,1,1,1,1,1,1,1,0,0
21,21,0,00,b,00,00,00,00,00,00,-847,f18,000,000,006,3,0,0,0,0,0,1,1,1,1,1,0,1,1,1,1,1,1,0,0
22,22,0,00,b,00,00,00,00,00,00,-1056,d90,000,000,006,3,0,0,0,1,0,1,0,0,1,1,0,1,1,1,1,1,1,0,0
23,23,0,00,b,00,00,00,00,00,00,-1240,e40,000,000,006,3,0,1,0,0,0,0,0,1,0,1,0,1,1,1,1,1,1,0,0
24,24,0,00,b,00,00,00,00,00,00,-1406,b5f,000,000,006,3,1,1,1,0,1,1,1,1,1,0,0,1,1,1,1,1,1,0,0
25,25,0,00,b,00,00,00,00,00,00,-1545,a91,000,000,006,3,1,0,0,1,0,0,0,1,1,0,0,1,1,1,1,1,1,0,0
26,26,0,00,b,00,00,00,00,00,00,-1655,917,000,000,006,3,1,0,1,0,1,1,0,0,1,0,0,1,1,1,1,1,1,0,0
27,27,0,00,b,00,00,00,00,00,00,-1739,813,000,000,006,3,1,0,1,0,0,0,0,0,1,0,0,1,1,1,1,1,1,0,0
28,28,0,00,b,00,00,00,00,00,00,-1787,bc9,000,000,006,3,1,1,0,1,0,1,1,1,0,0,0,1,1,1,1,1,1,0,0
29,29,0,00,b,00,00,00,00,00,00,-1813,b4e,000,000,006,3,0,1,1,0,1,1,1,1,0,0,0,1,1,1,1,1,1,0,0
30,30,0,00,b,00,00,00,00,00,00,-1802,856,000,000,006,3,0,1,1,0,1,0,0,0,1,0,0,1,1,1,1,1,1,0,0
31,31,0,00,b,00,00,00,00,00,00,-1770,81e,000,000,006,3,0,0,1,0,1,0,1,0,1,0,0,1,1,1,1,1,1,0,0
32,32,0,00,b,00,00,00,00,00,00,-1708,b56,000,000,006,3,0,1,1,0,1,1,0,1,1,0,0,1,1,1,1,1,1,0,0
33,33,0,00,b,00,00,00,00,00,00,-1610,d44,000,000,006,3,0,1,0,0,1,1,0,0,0,1,0,1,1,1,1,1,1,0,0
34,34,0,00,b,00,00,00,00,00,00,-1486,e89,000,000,006,3,1,0,0,1,0,0,1,1,0,1,0,1,1,1,1,1,1,0,0
35,35,0,00,b,00,00,00,00,00,00,-1335,d1e,000,000,006,3,0,0,1,0,1,1,1,0,1,1,0,1,1,1,1,1,1,0,0
36,36,0,00,b,00,00,00,00,00,00,-1164,926,000,000,006,3,0,0,1,0,1,1,0,0,0,0,1,1,1,1,1,1,1,0,0
37,37,0,00,b,00,00,00,00,00,00,-972,873,000,000,006,3,1,1,1,0,0,0,0,0,1,0,1,1,1,1,1,1,1,0,0
38,38,0,00,b,00,00,00,00,00,00,-761,b7b,000,000,006,3,1,1,1,0,0,1,1,1,1,0,1,1,1,1,1,1,1,0,0
39,39,0,00,b,00,00,00,00,00,00,-537,eab,000,000,006,3,1,0,1,1,0,0,1,1,0,1,1,1,1,1,1,1,1,0,0
40,40,0,00,b,00,00,00,00,00,00,-307,ff7,000,000,006,3,1,1,1,1,1,1,0,1,1,1,1,1,1,1,1,1,1,0,0
41,41,0,00,b,00,00,00,00,00,00,-65,3c0,000,000,006,3,0,1,0,1,0,1,0,1,0,0,0,0,1,1,1,1,1,0,0
42,42,0,00,b,00,00,00,00,00,00,170,256,000,000,006,3,0,1,1,0,1,0,0,1,1,0,0,0,1,1,1,1,1,0,0
43,43,0,00,b,00,00,00,00,00,00,406,58e,000,000,006,3,0,0,1,1,1,1,1,0,0,1,0,0,1,1,1,1,1,0,0
44,44,0,00,b,00,00,00,00,00,00,636,45c,000,000,006,3,0,1,0,0,1,0,1,0,1,1,0,0,1,1,1,1,1,0,0
45,45,0,00,b,00,00,00,00,00,00,850,020,000,000,006,3,0,0,0,0,0,0,0,0,0,0,1,0,1,1,1,1,1,0,0
46,46,0,00,b,00,00,00,00,00,00,1024,3ef,000,000,006,3,1,1,1,1,1,1,1,1,0,0,1,0,1,1,1,1,1,0,0
47,47,0,00,b,00,00,00,00,00,00,1279,3fe,000,000,006,3,0,1,1,1,1,1,1,1,1,0,1,0,1,1,1,1,1,0,0
48,48,0,00,b,00,00,00,00,00,00,1534,3fe,000,000,006,3,0,1,1,1,1,1,1,1,1,0,1,0,1,1,1,1,1,0,0
49,49,0,00,b,00,00,00,00,00,00,1534,3bf,000,000,006,3,1,0,1,1,1,1,1,1,1,0,1,0,1,1,1,1,1,0,0
50,50,0,00,b,00,00,00,00,00,00,1533,7ae,000,000,006,3,0,0,1,1,1,1,1,1,0,1,1,0,1,1,1,1,1,0,0
51,51,0,00,b,00,00,00,00,00,00,1788,7af,000,000,006,3,1,0,1,1,1,1,1,1,0,1,1,0,1,1,1,1,1,0,0
52,52,0,00,b,00,00,00,00,00,00,1789,7af,000,000,006,3,1,0,1,1,1,1,1,1,0,1,1,0,1,1,1,1,1,0,0
53,53,0,00,b,00,00,00,00,00,00,1789,7ae,000,000,006,3,0,0,1,1,1,1,1,1,0,1,1,0,1,1,1,1,1,0,0
54,54,0,00,b,00,00,00,00,00,00,1788,7af,000,000,006,3,1,0,1,1,1,1,1,1,0,1,1,0,1,1,1,1,1,0,0
55,55,0,00,b,00,00,00,00,00,00,1789,7af,000,000,006,3,1,0,1,1,1,1,1,1,0,1,1,0,1,1,1,1,1,0,0
56,56,0,00,b,00,00,00,00,00,00,1789,3fe,000,000,006,3,0,1,1,1,1,1,1,1,1,0,1,0,1,1,1,1,1,0,0
57,57,0,00,b,00,00,00,00,00,00,1534,235,000,000,006,3,1,0,0,0,1,0,0,1,1,0,1,0,1,1,1,1,1,0,0
58,58,0,00,b,00,00,00,00,00,00,1425,3ae,000,000,006,3,0,0,1,1,1,1,1,1,0,0,1,0,1,1,1,1,1,0,0
59,59,0,00,b,00,00,00,00,00,00,1276,1a4,000,000,006,3,0,0,0,1,1,1,0,0,0,0,1,0,1,1,1,1,1,0,0
60,60,0,00,b,00,00,00,00,00,00,1080,5df,000,000,006,3,1,1,1,1,1,1,1,0,1,1,0,0,1,1,1,1,1,0,0
61,61,0,00,b,00,00,00,00,00,00,895,701,000,000,006,3,1,0,0,0,0,1,0,1,0,1,0,0,1,1,1,1,1,0,0
62,62,0,00,b,00,00,00,00,00,00,673,219,000,000,006,3,1,0,0,0,0,0,1,1,1,0,0,0,1,1,1,1,1,0,0
63,63,0,00,b,00,00,00,00,00,00,449,24d,000,000,006,3,1,1,0,0,1,0,1,1,0,0,0,0,1,1,1,1,1,0,0
64,64,0,00,b,00,00,00,00,00,00,211,f3a,000,000,006,3,0,0,1,0,0,1,1,1,1,1,1,1,1,1,1,1,1,0,0
65,65,0,00,b,00,00,00,00,00,00,-28,fed,000,000,006,3,1,1,0,1,1,1,1,1,0,1,1,1,1,1,1,1,1,0,0
66,66,0,00,b,00,00,00,00,00,00,-261,ce2,000,000,006,3,0,1,1,1,0,0,0,0,0,1,1,1,1,1,1,1,1,0,0
67,67,0,00,b,00,00,00,00,00,00,-498,974,000,000,006,3,0,1,0,0,1,1,0,0,1,0,1,1,1,1,1,1,1,0,0
68,68,0,00,b,00,00,00,00,00,00,-718,8ed,000,000,006,3,1,1,0,1,1,0,1,0,0,0,1,1,1,1,1,1,1,0,0
69,69,0,00,b,00,00,00,00,00,00,-933,e96,000,000,006,3,0,0,1,1,1,0,0,1,1,1,0,1,1,1,1,1,1,0,0
70,70,0,00,b,00,00,00,00,00,00,-1124,f09,000,000,006,3,1,0,0,0,0,1,1,1,0,1,0,1,1,1,1,1,1,0,0
71,71,0,00,b,00,00,00,00,00,00,-1311,c8b,000,000,006,3,1,0,1,1,0,0,1,0,0,1,0,1,1,1,1,1,1,0,0
72,72,0,00,b,00,00,00,00,00,00,-1459,ad9,000,000,006,3,1,1,0,1,0,0,1,1,1,0,0,1,1,1,1,1,1,0,0
73,73,0,00,b,00,00,00,00,00,00,-1589,91b,000,000,006,3,1,0,1,0,0,1,1,0,1,0,0,1,1,1,1,1,1,0,0
74,74,0,00,b,00,00,00,00,00,00,-1691,896,000,000,006,3,0,0,1,1,1,0,0,0,1,0,0,1,1,1,1,1,1,0,0
75,75,0,00,b,00,00,00,00,00,00,-1764,b4e,000,000,006,3,0,1,1,0,1,1,1,1,0,0,0,1,1,1,1,1,1,0,0
76,76,0,00,b,00,00,00,00,00,00,-1802,b4b,000,000,006,3,1,1,1,0,0,1,1,1,0,0,0,1,1,1,1,1,1,0,0
77,77,0,00,b,00,00,00,00,00,00,-1817,b8d,000,000,006,3,1,0,0,1,1,1,1,1,0,0,0,1,1,1,1,1,1,0,0
78,78,0,00,b,00,00,00,00,00,00,-1799,913,000,000,006,3,1,0,1,0,0,1,0,0,1,0,0,1,1,1,1,1,1,0,0
79,79,0,00,b,00,00,00,00,00,00,-1755,9dc,000,000,006,3,0,1,0,1,1,1,1,0,1,0,0,1,1,1,1,1,1,0,0
80,80,0,00,b,00,00,00,00,00,00,-1670,b18,000,000,006,3,0,0,0,0,0,1,1,1,1,0,0,1,1,1,1,1,1,0,0
81,81,0,00,b,00,00,00,00,00,00,-1568,d0b,000,000,006,3,1,0,1,0,0,1,1,0,0,1,0,1,1,1,1,1,1,0,0
82,82,0,00,b,00,00,00,00,00,00,-1435,c50,000,000,006,3,0,1,0,0,0,0,0,0,1,1,0,1,1,1,1,1,1,0,0
83,83,0,00,b,00,00,00,00,00,00,-1278,f96,000,000,006,3,0,0,1,1,1,1,0,1,1,1,0,1,1,1,1,1,1,0,0
84,84,0,00,b,00,00,00,00,00,00,-1092,a23,000,000,006,3,1,0,1,0,0,0,0,1,0,0,1,1,1,1,1,1,1,0,0
85,85,0,00,b,00,00,00,00,00,00,-891,8be,000,000,006,3,0,0,1,1,1,0,1,0,1,0,1,1,1,1,1,1,1,0,0
86,86,0,00,b,00,00,00,00,00,00,-676,de7,000,000,006,3,1,1,1,1,1,1,0,0,0,1,1,1,1,1,1,1,1,0,0
87,87,0,00,b,00,00,00,00,00,00,-449,d73,000,000,006,3,1,1,1,0,0,1,0,0,1,1,1,1,1,1,1,1,1,0,0
88,88,0,00,b,00,00,00,00,00,00,-217,084,000,000,006,3,0,0,0,1,1,0,0,0,0,0,0,0,1,1,1,1,1,0,0
89,89,0,00,b,00,00,00,00,00,00,24,013,000,000,006,3,1,0,1,0,0,0,0,0,1,0,0,0,1,1,1,1,1,0,0
90,90,0,00,b,00,00,00,00,00,00,261,35b,000,000,006,3,1,1,1,0,0,1,1,1,1,0,0,0,1,1,1,1,1,0,0
91,91,0,00,b,00,00,00,00,00,00,487,68b,000,000,006,3,1,0,1,1,0,0,1,1,0,1,0,0,1,1,1,1,1,0,0
92,92,0,00,b,00,00,00,00,00,00,717,6d7,000,000,006,3,1,1,1,1,1,0,0,1,1,1,0,0,1,1,1,1,1,0,0
93,93,0,00,b,00,00,00,00,00,00,927,021,000,000,006,3,1,0,0,0,0,0,0,0,0,0,1,0,1,1,1,1,1,0,0
94,94,0,00,b,00,00,00,00,00,00,1025,3ef,000,000,006,3,1,1,1,1,1,1,1,1,0,0,1,0,1,1,1,1,1,0,0
95,95,0,00,b,00,00,00,00,00,00,1279,3ff,000,000,006,3,1,1,1,1,1,1,1,1,1,0,1,0,1,1,1,1,1,0,0
96,96,0,00,b,00,00,00,00,00,00,1535,3ff,000,000,006,3,1,1,1,1,1,1,1,1,1,0,1,0,1,1,1,1,1,0,0
97,97,0,00,b,00,00,00,00,00,00,1535,7ee,000,000,006,3,0,1,1,1,1,1,1,1,0,1,1,0,1,1,1,1,1,0,0
98,98,0,00,b,00,00,00,00,00,00,1790,7af,000,000,006,3,1,0,1,1,1,1,1,1,0,1,1,0,1,1,1,1,1,0,0
99,99,0,00,b,00,00,00,00,00,00,1789,7ee,000,000,006,3,0,1,1,1,1,1,1,1,0,1,1,0,1,1,1,1,1,0,0
100,100,0,00,b,00,00,00,00,00,00,1790,7af,000,000,006,3,1,0,1,1,1,1,1,1,0,1,1,0,1,1,1,1,1,0,0
101,101,0,00,b,00,00,00,00,00,00,1789,7ef,000,000,006,3,1,1,1,1,1,1,1,1,0,1,1,0,1,1,1,1,1,0,0
102,102,0,00,b,00,00,00,00,00,00,1791,7ee,000,000,006,3,0,1,1,1,1,1,1,1,0,1,1,0,1,1,1,1,1,0,0
103,103,0,00,b,00,00,00,00,00,00,1790,420,000,000,006,3,0,0,0,0,0,0,0,0,0,1,1,0,1,1,1,1,1,0,0
104,104,0,00,b,00,00,00,00,00,00,1536,3bf,000,000,006,3,1,0,1,1,1,1,1,1,1,0,1,0,1,1,1,1,1,0,0
105,105,0,00,b,00,00,00,00,00,00,1533,0fc,000,000,006,3,0,1,0,1,1,0,1,0,1,0,1,0,1,1,1,1,1,0,0
106,106,0,00,b,00,00,00,00,00,00,1370,366,000,000,006,3,0,1,1,0,1,1,0,1,0,0,1,0,1,1,1,1,1,0,0
107,107,0,00,b,00,00,00,00,00,00,1206,75f,000,000,006,3,1,1,1,0,1,1,1,1,1,1,0,0,1,1,1,1,1,0,0
108,108,0,00,b,00,00,00,00,00,00,1015,511,000,000,006,3,1,0,0,0,0,1,0,0,1,1,0,0,1,1,1,1,1,0,0
109,109,0,00,b,00,00,00,00,00,00,801,4ca,000,000,006,3,0,1,1,1,0,0,1,0,0,1,0,0,1,1,1,1,1,0,0
110,110,0,00,b,00,00,00,00,00,00,590,199,000,000,006,3,1,0,0,1,0,1,1,0,1,0,0,0,1,1,1,1,1,0,0
111,111,0,00,b,00,00,00,00,00,00,361,18c,000,000,006,3,0,0,0,1,1,1,1,0,0,0,0,0,1,1,1,1,1,0,0
112,112,0,00,b,00,00,00,00,00,00,120,e34,000,000,006,3,0,0,0,0,1,0,0,1,1,1,1,1,1,1,1,1,1,0,0
113,113,0,00,b,00,00,00,00,00,00,-112,f60,000,000,006,3,0,1,0,0,0,1,0,1,0,1,1,1,1,1,1,1,1,0,0
114,114,0,00,b,00,00,00,00,00,00,-350,bf5,000,000,006,3,1,1,0,1,1,1,0,1,1,0,1,1,1,1,1,1,1,0,0
115,115,0,00,b,00,00,00,00,00,00,-581,aad,000,000,006,3,1,0,0,1,1,0,1,1,0,0,1,1,1,1,1,1,1,0,0
116,116,0,00,b,00,00,00,00,00,00,-807,8e2,000,000,006,3,0,1,1,1,0,0,0,0,0,0,1,1,1,1,1,1,1,0,0
117,117,0,00,b,00,00,00,00,00,00,-1010,c98,000,000,006,3,0,0,0,1,0,0,1,0,1,1,0,1,1,1,1,1,1,0,0
118,118,0,00,b,00,00,00,00,00,00,-1208,e85,000,000,006,3,1,0,0,1,1,0,0,1,0,1,0,1,1,1,1,1,1,0,0
119,119,0,00,b,00,00,00,00,00,00,-1383,c47,000,000,006,3,1,1,1,0,1,0,0,0,0,1,0,1,1,1,1,1,1,0,0
120,120,0,00,b,00,00,00,00,00,00,-1513,b10,000,000,006,3,0,0,0,0,0,1,0,1,1,0,0,1,1,1,1,1,1,0,0
121,121,0,00,b,00,00,00,00,00,00,-1632,85b,000,000,006,3,1,1,1,0,0,0,1,0,1,0,0,1,1,1,1,1,1,0,0
122,122,0,00,b,00,00,00,00,00,00,-1721,891,000,000,006,3,1,0,0,1,0,0,0,0,1,0,0,1,1,1,1,1,1,0,0
123,123,0,00,b,00,00,00,00,00,00,-1783,b8c,000,000,006,3,0,0,0,1,1,1,1,1,0,0,0,1,1,1,1,1,1,0,0
124,124,0,00,b,00,00,00,00,00,00,-1800,b8c,000,000,006,3,0,0,0,1,1,1,1,1,0,0,0,1,1,1,1,1,1,0,0
125,125,0,00,b,00,00,00,00,00,00,-1800,853,000,000,006,3,1,1,1,0,0,0,0,0,1,0,0,1,1,1,1,1,1,0,0
126,126,0,00,b,00,00,00,00,00,00,-1785,957,000,000,006,3,1,1,1,0,1,1,0,0,1,0,0,1,1,1,1,1,1,0,0
127,127,0,00,b,00,00,00,00,00,00,-1737,ad4,000,000,006,3,0,1,0,1,1,0,0,1,1,0,0,1,1,1,1,1,1,0,0
128,128,0,00,b,00,00,00,00,00,00,-1638,cc0,000,000,006,3,0,1,0,1,0,0,0,0,0,1,0,1,1,1,1,1,1,0,0
129,129,0,00,b,00,00,00,00,00,00,-1526,f80,000,000,006,3,0,0,0,1,0,1,0,1,0,1,0,1,1,1,1,1,1,0,0
130,130,0,00,b,00,00,00,00,00,00,-1368,c5b,000,000,006,3,1,1,1,0,0,0,1,0,1,1,0,1,1,1,1,1,1,0,0
131,131,0,00,b,00,00,00,00,00,00,-1209,8a0,000,000,006,3,0,0,0,1,0,0,0,0,0,0,1,1,1,1,1,1,1,0,0
132,132,0,00,b,00,00,00,00,00,00,-1016,a6e,000,000,006,3,0,1,1,0,1,0,1,1,0,0,1,1,1,1,1,1,1,0,0
133,133,0,00,b,00,00,00,00,00,00,-810,bb4,000,000,006,3,0,0,0,1,1,1,0,1,1,0,1,1,1,1,1,1,1,0,0
134,134,0,00,b,00,00,00,00,00,00,-584,e64,000,000,006,3,0,1,0,0,1,0,0,1,0,1,1,1,1,1,1,1,1,0,0
135,135,0,00,b,00,00,00,00,00,00,-366,eb0,000,000,006,3,0,0,0,1,0,0,0,1,1,1,1,1,1,1,1,1,1,0,0
136,136,0,00,b,00,00,00,00,00,00,-120,1c8,000,000,006,3,0,1,0,1,0,1,1,0,0,0,0,0,1,1,1,1,1,0,0
137,137,0,00,b,00,00,00,00,00,00,106,0dc,000,000,006,3,0,1,0,1,1,0,1,0,1,0,0,0,1,1,1,1,1,0,0
138,138,0,00,b,00,00,00,00,00,00,346,587,000,000,006,3,1,0,1,1,1,1,0,0,0,1,0,0,1,1,1,1,1,0,0
139,139,0,00,b,00,00,00,00,00,00,573,4d5,000,000,006,3,1,1,0,1,1,0,0,0,1,1,0,0,1,1,1,1,1,0,0
140,140,0,00,b,00,00,00,00,00,00,795,7df,000,000,006,3,1,1,1,1,1,1,1,1,1,1,0,0,1,1,1,1,1,0,0
141,141,0,00,b,00,00,00,00,00,00,1023,3ef,000,000,006,3,1,1,1,1,1,1,1,1,0,0,1,0,1,1,1,1,1,0,0
142,142,0,00,b,00,00,00,00,00,00,1279,030,000,000,006,3,0,0,0,0,0,0,0,0,1,0,1,0,1,1,1,1,1,0,0
143,143,0,00,b,00,00,00,00,00,00,1280,420,000,000,006,3,0,0,0,0,0,0,0,0,0,1,1,0,1,1,1,1,1,0,0
144,144,0,00,b,00,00,00,00,00,00,1536,3ff,000,000,006,3,1,1,1,1,1,1,1,1,1,0,1,0,1,1,1,1,1,0,0
145,145,0,00,b,00,00,00,00,00,00,1535,7ef,000,000,006,3,1,1,1,1,1,1,1,1,0,1,1,0,1,1,1,1,1,0,0
146,146,0,00,b,00,00,00,00,00,00,1791,7af,000,000,006,3,1,0,1,1,1,1,1,1,0,1,1,0,1,1,1,1,1,0,0
147,147,0,00,b,00,00,00,00,00,00,1789,7ef,000,000,006,3,1,1,1,1,1,1,1,1,0,1,1,0,1,1,1,1,1,0,0
148,148,0,00,b,00,00,00,00,00,00,1791,7af,000,000,006,3,1,0,1,1,1,1,1,1,0,1,1,0,1,1,1,1,1,0,0
149,149,0,00,b,00,00,00,00,00,00,1789,7ae,000,000,006,3,0,0,1,1,1,1,1,1,0,1,1,0,1,1,1,1,1,0,0
150,150,0,00,b,00,00,00,00,00,00,1788,7ae,000,000,006,3,0,0,1,1,1,1,1,1,0,1,1,0,1,1,1,1,1,0,0
151,151,0,00,b,00,00,00,00,00,00,1788,3fe,000,000,006,3,0,1,1,1,1,1,1,1,1,0,1,0,1,1,1,1,1,0,0
152,152,0,00,b,00,00,00,00,00,00,1534,3bd,000,000,006,3,1,0,0,1,1,1,1,1,1,0,1,0,1,1,1,1,1,0,0
153,153,0,00,b,00,00,00,00,00,00,1529,0f6,000,000,006,3,0,1,1,1,1,0,0,0,1,0,1,0,1,1,1,1,1,0,0
154,154,0,00,b,00,00,00,00,00,00,1310,12d,000,000,006,3,1,0,0,0,1,1,1,0,0,0,1,0,1,1,1,1,1,0,0
155,155,0,00,b,00,00,00,00,00,00,1137,792,000,000,006,3,0,0,1,1,0,1,0,1,1,1,0,0,1,1,1,1,1,0,0
156,156,0,00,b,00,00,00,00,00,00,940,68c,000,000,006,3,0,0,0,1,1,0,1,1,0,1,0,0,1,1,1,1,1,0,0
157,157,0,00,b,00,00,00,00,00,00,728,35f,000,000,006,3,1,1,1,0,1,1,1,1,1,0,0,0,1,1,1,1,1,0,0
158,158,0,00,b,00,00,00,00,00,00,503,090,000,000,006,3,0,0,0,1,0,0,0,0,1,0,0,0,1,1,1,1,1,0,0
159,159,0,00,b,00,00,00,00,00,00,264,0c6,000,000,006,3,0,1,1,1,1,0,0,0,0,0,0,0,1,1,1,1,1,0,0
160,160,0,00,b,00,00,00,00,00,00,30,d77,000,000,006,3,1,1,1,0,1,1,0,0,1,1,1,1,1,1,1,1,1,0,0
161,161,0,00,b,00,00,00,00,00,00,-201,ca8,000,000,006,3,0,0,0,1,0,0,1,0,0,1,1,1,1,1,1,1,1,0,0
162,162,0,00,b,00,00,00,00,00,00,-440,93a,000,000,006,3,0,0,1,0,0,1,1,0,1,0,1,1,1,1,1,1,1,0,0
163,163,0,00,b,00,00,00,00,00,00,-668,ae3,000,000,006,3,1,1,1,1,0,0,0,1,0,0,1,1,1,1,1,1,1,0,0
164,164,0,00,b,00,00,00,00,00,00,-881,f97,000,000,006,3,1,0,1,1,1,1,0,1,1,1,0,1,1,1,1,1,1,0,0
165,165,0,00,b,00,00,00,00,00,00,-1091,c90,000,000,006,3,0,0,0,1,0,0,0,0,1,1,0,1,1,1,1,1,1,0,0
166,166,0,00,b,00,00,00,00,00,00,-1272,dcb,000,000,006,3,1,1,1,1,0,1,1,0,0,1,0,1,1,1,1,1,1,0,0
167,167,0,00,b,00,00,00,00,00,00,-1425,b5b,000,000,006,3,1,1,1,0,0,1,1,1,1,0,0,1,1,1,1,1,1,0,0
168,168,0,00,b,00,00,00,00,00,00,-1561,a11,000,000,006,3,1,0,0,0,0,0,0,1,1,0,0,1,1,1,1,1,1,0,0
169,169,0,00,b,00,00,00,00,00,00,-1663,9d2,000,000,006,3,0,1,1,1,0,1,0,0,1,0,0,1,1,1,1,1,1,0,0
170,170,0,00,b,00,00,00,00,00,00,-1746,bcf,000,000,006,3,1,1,1,1,1,1,1,1,0,0,0,1,1,1,1,1,1,0,0
171,171,0,00,b,00,00,00,00,00,00,-1793,b89,000,000,006,3,1,0,0,1,0,1,1,1,0,0,0,1,1,1,1,1,1,0,0
172,172,0,00,b,00,00,00,00,00,00,-1815,b4f,000,000,006,3,1,1,1,0,1,1,1,1,0,0,0,1,1,1,1,1,1,0,0
173,173,0,00,b,00,00,00,00,00,00,-1801,911,000,000,006,3,1,0,0,0,0,1,0,0,1,0,0,1,1,1,1,1,1,0,0
174,174,0,00,b,00,00,00,00,00,00,-1759,958,000,000,006,3,0,1,0,0,0,1,1,0,1,0,0,1,1,1,1,1,1,0,0
175,175,0,00,b,00,00,00,00,00,00,-1694,a1b,000,000,006,3,1,0,1,0,0,0,1,1,1,0,0,1,1,1,1,1,1,0,0
176,176,0,00,b,00,00,00,00,00,00,-1595,c0b,000,000,006,3,1,0,1,0,0,0,1,0,0,1,0,1,1,1,1,1,1,0,0
177,177,0,00,b,00,00,00,00,00,00,-1467,e4e,000,000,006,3,0,1,1,0,1,0,1,1,0,1,0,1,1,1,1,1,1,0,0
178,178,0,00,b,00,00,00,00,00,00,-1322,e94,000,000,006,3,0,0,0,1,1,0,0,1,1,1,0,1,1,1,1,1,1,0,0
179,179,0,00,b,00,00,00,00,00,00,-1128,86c,000,000,006,3,0,1,0,0,1,0,1,0,0,0,1,1,1,1,1,1,1,0,0
180,180,0,00,b,00,00,00,00,00,00,-942,971,000,000,006,3,1,1,0,0,0,1,0,0,1,0,1,1,1,1,1,1,1,0,0
181,181,0,00,b,00,00,00,00,00,00,-733,c62,000,000,006,3,0,1,1,0,0,0,0,0,0,1,1,1,1,1,1,1,1,0,0
182,182,0,00,b,00,00,00,00,00,00,-506,f2c,000,000,006,3,0,0,0,0,1,1,1,1,0,1,1,1,1,1,1,1,1,0,0
183,183,0,00,b,00,00,00,00,00,00,-272,efe,000,000,006,3,0,1,1,1,1,0,1,1,1,1,1,1,1,1,1,1,1,0,0
184,184,0,00,b,00,00,00,00,00,00,-34,28b,000,000,006,3,1,0,1,1,0,0,1,1,0,0,0,0,1,1,1,1,1,0,0
185,185,0,00,b,00,00,00,00,00,00,205,317,000,000,006,3,1,0,1,0,1,1,0,1,1,0,0,0,1,1,1,1,1,0,0
186,186,0,00,b,00,00,00,00,00,00,437,605,000,000,006,3,1,0,0,0,1,0,0,1,0,1,0,0,1,1,1,1,1,0,0
187,187,0,00,b,00,00,00,00,00,00,657,51f,000,000,006,3,1,0,1,0,1,1,1,0,1,1,0,0,1,1,1,1,1,0,0
188,188,0,00,b,00,00,00,00,00,00,885,020,000,000,006,3,0,0,0,0,0,0,0,0,0,0,1,0,1,1,1,1,1,0,0
189,189,0,00,b,00,00,00,00,00,00,1024,3ef,000,000,006,3,1,1,1,1,1,1,1,1,0,0,1,0,1,1,1,1,1,0,0
190,190,0,00,b,00,00,00,00,00,00,1279,3bf,000,000,006,3,1,0,1,1,1,1,1,1,1,0,1,0,1,1,1,1,1,0,0
191,191,0,00,b,00,00,00,00,00,00,1533,3bf,000,000,006,3,1,0,1,1,1,1,1,1,1,0,1,0,1,1,1,1,1,0,0
192,192,0,00,b,00,00,00,00,00,00,1533,7ae,000,000,006,3,0,0,1,1,1,1,1,1,0,1,1,0,1,1,1,1,1,0,0
193,193,0,00,b,00,00,00,00,00,00,1788,7ae,000,000,006,3,0,0,1,1,1,1,1,1,0,1,1,0,1,1,1,1,1,0,0
194,194,0,00,b,00,00,00,00,00,00,1788,7ae,000,000,006,3,0,0,1,1,1,1,1,1,0,1,1,0,1,1,1,1,1,0,0
